
T17C4 000:481 SEGGER J-Link V4.90 Log File (0000ms, 0273ms total)
T17C4 000:481 DLL Compiled: Jul 28 2014 10:35:20 (0000ms, 0273ms total)
T17C4 000:481 Logging started @ 2014-12-21 11:26 (0001ms, 0274ms total)
T17C4 000:482 JLINK_SetWarnOutHandler(...) (0000ms, 0274ms total)
T17C4 000:482 JLINK_OpenEx(...)
Firmware: J-Link ARM V8 compiled Jan 31 2018 18:34:52
Hardware: V8.00
S/N: 20080643
Feature(s): RDI,FlashDL,FlashBP,JFlash,GDBFull  returns O.K. (0258ms, 0532ms total)
T17C4 000:740 JLINK_SetErrorOutHandler(...) (0000ms, 0532ms total)
T17C4 000:740 JLINK_ExecCommand("ProjectFile = "C:\Users\YLion\Desktop\点阵游戏机最终版\Project\RVMDK（uv4）\JLinkSettings.ini"", ...)  returns 0x00 (0000ms, 0532ms total)
T17C4 000:741 JLINK_ExecCommand("DisableConnectionTimeout", ...)  returns 0x01 (0000ms, 0532ms total)
T17C4 000:741 JLINK_TIF_Select(JLINKARM_TIF_JTAG)  returns 0x00 (0002ms, 0534ms total)
T17C4 000:743 JLINK_SetSpeed(5000) (0000ms, 0534ms total)
T17C4 000:744 JLINK_GetHardwareVersion()  returns 0x13880 (0000ms, 0535ms total)
T17C4 000:744 JLINK_GetDLLVersion()  returns 49000 (0000ms, 0535ms total)
T17C4 000:744 JLINK_GetFirmwareString(...) (0000ms, 0535ms total)
T17C4 000:746 JLINK_GetDLLVersion()  returns 49000 (0000ms, 0535ms total)
T17C4 000:746 JLINK_GetCompileDateTime() (0000ms, 0535ms total)
T17C4 000:746 JLINK_GetFirmwareString(...) (0001ms, 0536ms total)
T17C4 000:747 JLINK_GetHardwareVersion()  returns 0x13880 (0000ms, 0536ms total)
T17C4 000:758 JLINK_Reset() >0x2F8 JTAG>TotalIRLen = 9, IRPrint = 0x0011 >0x30 JTAG> >0x210 JTAG> >0x70 JTAG> >0x40 JTAG> >0x40 JTAG> >0x40 JTAG> >0x50 JTAG> >0x80 JTAG> >0x40 JTAG> >0x30 JTAG> >0x40 JTAG> >0x40 JTAG> >0x30 JTAG> >0x40 JTAG> >0x50 JTAG>Found Cortex-M3 r1p1, Little endian. -- CPU_WriteMem(4 bytes @ 0xE0002000) -- CPU_ReadMem(4 bytes @ 0xE000EDF0) -- CPU_WriteMem(4 bytes @ 0xE000EDF0) -- CPU_ReadMem(4 bytes @ 0xE0002000)FPUnit: 6 code (BP) slots and 2 literal slots
 -- CPU_ReadMem(4 bytes @ 0xE000EDFC) -- CPU_WriteMem(4 bytes @ 0xE000EDFC) -- CPU_ReadMem(4 bytes @ 0xE0001000) -- CPU_WriteMem(4 bytes @ 0xE0001000) -- CPU_ReadMem(4 bytes @ 0xE00FF010)TPIU fitted. -- CPU_ReadMem(4 bytes @ 0xE00FF014)ETM fitted. -- CPU_ReadMem(4 bytes @ 0xE00FF018) -- CPU is running -- CPU_WriteMem(4 bytes @ 0xE000EDF0) -- CPU is running -- CPU_WriteMem(4 bytes @ 0xE000EDFC) -- CPU is running -- CPU_WriteMem(4 bytes @ 0xE000ED0C) -- CPU is running -- CPU_ReadMem(4 bytes @ 0xE000EDF0)
 -- CPU is running -- CPU_ReadMem(4 bytes @ 0xE000EDF0) -- CPU is running -- CPU_WriteMem(4 bytes @ 0xE000EDF0) -- CPU is running -- CPU_WriteMem(4 bytes @ 0xE000EDFC) -- CPU is running -- CPU_ReadMem(4 bytes @ 0xE000EDF0) >0x80 JTAG> >0x40 JTAG> >0x30 JTAG> >0x40 JTAG> >0x50 JTAG> >0x40 JTAG> -- CPU_WriteMem(4 bytes @ 0xE000EDFC) -- CPU_WriteMem(4 bytes @ 0xE0001028) -- CPU_WriteMem(4 bytes @ 0xE0001038) -- CPU_WriteMem(4 bytes @ 0xE0001048) -- CPU_WriteMem(4 bytes @ 0xE0001058)
 -- CPU_WriteMem(4 bytes @ 0xE0002000) -- CPU_ReadMem(4 bytes @ 0xE000EDFC) -- CPU_ReadMem(4 bytes @ 0xE0001000) (0056ms, 0592ms total)
T17C4 000:814 JLINK_GetIdData(...) ScanLen=9 NumDevices=2 aId[0]=0x3BA00477 aIrRead[0]=0 aScanLen[0]=0 aScanRead[0]=0 (0000ms, 0592ms total)
T17C4 000:814 JLINK_JTAG_GetDeviceID(DeviceIndex = 0)  returns 0x3BA00477 (0000ms, 0592ms total)
T17C4 000:814 JLINK_JTAG_GetDeviceInfo(DeviceIndex = 0)  returns 0x00 (0000ms, 0592ms total)
T17C4 000:814 JLINK_JTAG_GetDeviceID(DeviceIndex = 1)  returns 0x6414041 (0000ms, 0592ms total)
T17C4 000:814 JLINK_JTAG_GetDeviceInfo(DeviceIndex = 1)  returns 0x00 (0000ms, 0592ms total)
T17C4 000:814 JLINK_GetDebugInfo(0x100) -- Value=0xE00FF003  returns 0x00 (0000ms, 0592ms total)
T17C4 000:816 JLINK_ReadMem (0xE00FF000, 0x0018 Bytes, ...) -- CPU_ReadMem(24 bytes @ 0xE00FF000) - Data: 03 F0 F0 FF 03 20 F0 FF 03 30 F0 FF 03 10 F0 FF ...  returns 0x00 (0001ms, 0593ms total)
T17C4 000:817 JLINK_ReadMemU32(0xE000ED00, 0x0001 Items, ...) -- CPU_ReadMem(4 bytes @ 0xE000ED00) - Data: 31 C2 1F 41  returns 0x01 (0001ms, 0594ms total)
T17C4 000:818 JLINK_Halt()  returns 0x00 (0000ms, 0594ms total)
T17C4 000:818 JLINK_IsHalted()  returns TRUE (0000ms, 0594ms total)
T17C4 000:818 JLINK_ReadMemU32(0xE000EDF0, 0x0001 Items, ...) -- CPU_ReadMem(4 bytes @ 0xE000EDF0) - Data: 03 00 03 00  returns 0x01 (0001ms, 0595ms total)
T17C4 000:819 JLINK_WriteU32(0xE000EDF0, 0xA05F0003) -- CPU_WriteMem(4 bytes @ 0xE000EDF0)  returns 0x00 (0000ms, 0595ms total)
T17C4 000:819 JLINK_WriteU32(0xE000EDFC, 0x01000000) -- CPU_WriteMem(4 bytes @ 0xE000EDFC)  returns 0x00 (0001ms, 0596ms total)
T17C4 000:820 JLINK_ReadMemU32(0xE0002000, 0x0001 Items, ...) -- CPU_ReadMem(4 bytes @ 0xE0002000) - Data: 61 02 00 00  returns 0x01 (0001ms, 0597ms total)
T17C4 000:821 JLINK_ReadMemU32(0xE0001000, 0x0001 Items, ...) -- CPU_ReadMem(4 bytes @ 0xE0001000) - Data: 01 00 00 40  returns 0x01 (0000ms, 0597ms total)
T17C4 000:827 JLINK_ExecCommand("Device = STM32F103VE", ...)Device "STM32F103VE" selected (512 KB flash, 64 KB RAM).  returns 0x00 (0002ms, 0599ms total)
T17C4 000:829 JLINK_GetHWStatus(...)  returns 0x00 (0001ms, 0600ms total)
T17C4 000:834 JLINK_GetNumBPUnits(Type = 0xFFFFFF00)  returns 0x06 (0000ms, 0600ms total)
T17C4 000:834 JLINK_GetNumBPUnits(Type = 0xF0)  returns 0x2000 (0000ms, 0600ms total)
T17C4 000:834 JLINK_GetNumWPUnits()  returns 0x04 (0000ms, 0600ms total)
T17C4 000:838 JLINK_GetSpeed()  returns 0x12C0 (0000ms, 0600ms total)
T17C4 000:840 JLINK_ReadMemU32(0xE000E004, 0x0001 Items, ...) -- CPU_ReadMem(4 bytes @ 0xE000E004) - Data: 01 00 00 00  returns 0x01 (0001ms, 0601ms total)
T17C4 000:841 JLINK_WriteMem(0xE0001000, 0x001C Bytes, ...) - Data: 01 00 00 00 00 00 00 00 00 00 00 00 00 00 00 00 ... -- CPU_WriteMem(28 bytes @ 0xE0001000)  returns 0x1C (0001ms, 0602ms total)
T17C4 000:842 JLINK_ReadMem (0xE0001000, 0x001C Bytes, ...) -- CPU_ReadMem(28 bytes @ 0xE0001000) - Data: 01 00 00 40 00 00 00 00 00 00 00 00 00 00 00 00 ...  returns 0x00 (0001ms, 0603ms total)
T17C4 000:843 JLINK_Halt()  returns 0x00 (0000ms, 0603ms total)
T17C4 000:843 JLINK_IsHalted()  returns TRUE (0000ms, 0603ms total)
T17C4 000:844 JLINK_WriteMem(0x20000000, 0x0164 Bytes, ...) - Data: 00 BE 0A E0 0D 78 2D 06 68 40 08 24 40 00 00 D3 ... -- CPU_WriteMem(356 bytes @ 0x20000000)  returns 0x164 (0004ms, 0607ms total)
T17C4 000:848 JLINK_WriteReg(R0, 0x08000000)  returns 0x00 (0000ms, 0607ms total)
T17C4 000:848 JLINK_WriteReg(R1, 0x007A1200)  returns 0x00 (0000ms, 0607ms total)
T17C4 000:848 JLINK_WriteReg(R2, 0x00000001)  returns 0x00 (0000ms, 0607ms total)
T17C4 000:848 JLINK_WriteReg(R3, 0x00000000)  returns 0x00 (0000ms, 0607ms total)
T17C4 000:848 JLINK_WriteReg(R4, 0x00000000)  returns 0x00 (0000ms, 0607ms total)
T17C4 000:848 JLINK_WriteReg(R5, 0x00000000)  returns 0x00 (0000ms, 0607ms total)
T17C4 000:848 JLINK_WriteReg(R6, 0x00000000)  returns 0x00 (0000ms, 0607ms total)
T17C4 000:848 JLINK_WriteReg(R7, 0x00000000)  returns 0x00 (0000ms, 0607ms total)
T17C4 000:848 JLINK_WriteReg(R8, 0x00000000)  returns 0x00 (0000ms, 0607ms total)
T17C4 000:848 JLINK_WriteReg(R9, 0x20000160)  returns 0x00 (0000ms, 0607ms total)
T17C4 000:848 JLINK_WriteReg(R10, 0x00000000)  returns 0x00 (0000ms, 0607ms total)
T17C4 000:848 JLINK_WriteReg(R11, 0x00000000)  returns 0x00 (0000ms, 0607ms total)
T17C4 000:848 JLINK_WriteReg(R12, 0x00000000)  returns 0x00 (0000ms, 0607ms total)
T17C4 000:848 JLINK_WriteReg(R13 (SP), 0x20000800)  returns 0x00 (0000ms, 0607ms total)
T17C4 000:848 JLINK_WriteReg(R14, 0x20000001)  returns 0x00 (0000ms, 0607ms total)
T17C4 000:848 JLINK_WriteReg(R15 (PC), 0x20000038)  returns 0x00 (0000ms, 0607ms total)
T17C4 000:848 JLINK_WriteReg(XPSR, 0x01000000)  returns 0x00 (0000ms, 0607ms total)
T17C4 000:848 JLINK_WriteReg(MSP, 0x20000800)  returns 0x00 (0000ms, 0607ms total)
T17C4 000:848 JLINK_WriteReg(PSP, 0x20000800)  returns 0x00 (0001ms, 0608ms total)
T17C4 000:849 JLINK_WriteReg(CFBP, 0x00000000)  returns 0x00 (0000ms, 0608ms total)
T17C4 000:849 JLINK_SetBPEx(Addr = 0x20000000, Type = 0xFFFFFFF2) -- CPU_ReadMem(2 bytes @ 0x20000000)  returns 0x00000001 (0000ms, 0608ms total)
T17C4 000:849 JLINK_Go() -- CPU_WriteMem(2 bytes @ 0x20000000) -- CPU_WriteMem(4 bytes @ 0xE0002008) -- CPU_WriteMem(4 bytes @ 0xE000200C) -- CPU_WriteMem(4 bytes @ 0xE0002010) -- CPU_WriteMem(4 bytes @ 0xE0002014) -- CPU_WriteMem(4 bytes @ 0xE0002018) -- CPU_WriteMem(4 bytes @ 0xE000201C) -- CPU_WriteMem(4 bytes @ 0xE0001004) (0008ms, 0616ms total)
T17C4 000:857 JLINK_IsHalted() -- CPU_ReadMem(2 bytes @ 0x20000000)  returns TRUE (0004ms, 0620ms total)
T17C4 000:861 JLINK_ReadReg(R15 (PC))  returns 0x20000000 (0000ms, 0616ms total)
T17C4 000:861 JLINK_ClrBPEx(BPHandle = 0x00000001)  returns 0x00 (0000ms, 0616ms total)
T17C4 000:861 JLINK_ReadReg(R0)  returns 0x00000000 (0000ms, 0616ms total)
T17C4 000:862 JLINK_WriteReg(R0, 0x08000000)  returns 0x00 (0000ms, 0616ms total)
T17C4 000:862 JLINK_WriteReg(R1, 0x007A1200)  returns 0x00 (0000ms, 0616ms total)
T17C4 000:862 JLINK_WriteReg(R2, 0x00000001)  returns 0x00 (0000ms, 0616ms total)
T17C4 000:862 JLINK_WriteReg(R3, 0x00000000)  returns 0x00 (0000ms, 0616ms total)
T17C4 000:862 JLINK_WriteReg(R4, 0x00000000)  returns 0x00 (0000ms, 0616ms total)
T17C4 000:862 JLINK_WriteReg(R5, 0x00000000)  returns 0x00 (0000ms, 0616ms total)
T17C4 000:862 JLINK_WriteReg(R6, 0x00000000)  returns 0x00 (0000ms, 0616ms total)
T17C4 000:862 JLINK_WriteReg(R7, 0x00000000)  returns 0x00 (0000ms, 0616ms total)
T17C4 000:862 JLINK_WriteReg(R8, 0x00000000)  returns 0x00 (0000ms, 0616ms total)
T17C4 000:862 JLINK_WriteReg(R9, 0x20000160)  returns 0x00 (0000ms, 0616ms total)
T17C4 000:862 JLINK_WriteReg(R10, 0x00000000)  returns 0x00 (0000ms, 0616ms total)
T17C4 000:862 JLINK_WriteReg(R11, 0x00000000)  returns 0x00 (0000ms, 0616ms total)
T17C4 000:862 JLINK_WriteReg(R12, 0x00000000)  returns 0x00 (0000ms, 0616ms total)
T17C4 000:862 JLINK_WriteReg(R13 (SP), 0x20000800)  returns 0x00 (0000ms, 0616ms total)
T17C4 000:862 JLINK_WriteReg(R14, 0x20000001)  returns 0x00 (0000ms, 0616ms total)
T17C4 000:862 JLINK_WriteReg(R15 (PC), 0x2000007C)  returns 0x00 (0000ms, 0616ms total)
T17C4 000:862 JLINK_WriteReg(XPSR, 0x01000000)  returns 0x00 (0000ms, 0616ms total)
T17C4 000:862 JLINK_WriteReg(MSP, 0x20000800)  returns 0x00 (0001ms, 0617ms total)
T17C4 000:863 JLINK_WriteReg(PSP, 0x20000800)  returns 0x00 (0000ms, 0617ms total)
T17C4 000:863 JLINK_WriteReg(CFBP, 0x00000000)  returns 0x00 (0000ms, 0617ms total)
T17C4 000:863 JLINK_SetBPEx(Addr = 0x20000000, Type = 0xFFFFFFF2)  returns 0x00000002 (0000ms, 0617ms total)
T17C4 000:863 JLINK_Go() (0001ms, 0618ms total)
T17C4 000:864 JLINK_IsHalted()  returns FALSE (0001ms, 0619ms total)
T17C4 000:915 JLINK_IsHalted() -- CPU_ReadMem(2 bytes @ 0x20000000)  returns TRUE (0004ms, 0622ms total)
T17C4 000:919 JLINK_ReadReg(R15 (PC))  returns 0x20000000 (0000ms, 0618ms total)
T17C4 000:919 JLINK_ClrBPEx(BPHandle = 0x00000002)  returns 0x00 (0000ms, 0618ms total)
T17C4 000:919 JLINK_ReadReg(R0)  returns 0x00000000 (0000ms, 0618ms total)
T17C4 000:970 JLINK_WriteReg(R0, 0x00000001)  returns 0x00 (0000ms, 0618ms total)
T17C4 000:970 JLINK_WriteReg(R1, 0x007A1200)  returns 0x00 (0000ms, 0618ms total)
T17C4 000:970 JLINK_WriteReg(R2, 0x00000001)  returns 0x00 (0000ms, 0618ms total)
T17C4 000:970 JLINK_WriteReg(R3, 0x00000000)  returns 0x00 (0000ms, 0618ms total)
T17C4 000:970 JLINK_WriteReg(R4, 0x00000000)  returns 0x00 (0000ms, 0618ms total)
T17C4 000:970 JLINK_WriteReg(R5, 0x00000000)  returns 0x00 (0000ms, 0618ms total)
T17C4 000:970 JLINK_WriteReg(R6, 0x00000000)  returns 0x00 (0000ms, 0618ms total)
T17C4 000:970 JLINK_WriteReg(R7, 0x00000000)  returns 0x00 (0000ms, 0618ms total)
T17C4 000:970 JLINK_WriteReg(R8, 0x00000000)  returns 0x00 (0000ms, 0618ms total)
T17C4 000:970 JLINK_WriteReg(R9, 0x20000160)  returns 0x00 (0001ms, 0619ms total)
T17C4 000:971 JLINK_WriteReg(R10, 0x00000000)  returns 0x00 (0000ms, 0619ms total)
T17C4 000:971 JLINK_WriteReg(R11, 0x00000000)  returns 0x00 (0000ms, 0619ms total)
T17C4 000:971 JLINK_WriteReg(R12, 0x00000000)  returns 0x00 (0000ms, 0619ms total)
T17C4 000:971 JLINK_WriteReg(R13 (SP), 0x20000800)  returns 0x00 (0000ms, 0619ms total)
T17C4 000:971 JLINK_WriteReg(R14, 0x20000001)  returns 0x00 (0000ms, 0619ms total)
T17C4 000:971 JLINK_WriteReg(R15 (PC), 0x2000006A)  returns 0x00 (0000ms, 0619ms total)
T17C4 000:971 JLINK_WriteReg(XPSR, 0x01000000)  returns 0x00 (0000ms, 0619ms total)
T17C4 000:971 JLINK_WriteReg(MSP, 0x20000800)  returns 0x00 (0000ms, 0619ms total)
T17C4 000:971 JLINK_WriteReg(PSP, 0x20000800)  returns 0x00 (0000ms, 0619ms total)
T17C4 000:971 JLINK_WriteReg(CFBP, 0x00000000)  returns 0x00 (0000ms, 0619ms total)
T17C4 000:971 JLINK_SetBPEx(Addr = 0x20000000, Type = 0xFFFFFFF2)  returns 0x00000003 (0000ms, 0619ms total)
T17C4 000:971 JLINK_Go() (0002ms, 0621ms total)
T17C4 000:973 JLINK_IsHalted() -- CPU_ReadMem(2 bytes @ 0x20000000)  returns TRUE (0004ms, 0625ms total)
T17C4 000:977 JLINK_ReadReg(R15 (PC))  returns 0x20000000 (0000ms, 0621ms total)
T17C4 000:977 JLINK_ClrBPEx(BPHandle = 0x00000003)  returns 0x00 (0000ms, 0621ms total)
T17C4 000:977 JLINK_ReadReg(R0)  returns 0x00000000 (0000ms, 0621ms total)
T17C4 000:982 JLINK_WriteMem(0x20000000, 0x0164 Bytes, ...) - Data: 00 BE 0A E0 0D 78 2D 06 68 40 08 24 40 00 00 D3 ... -- CPU_WriteMem(356 bytes @ 0x20000000)  returns 0x164 (0003ms, 0624ms total)
T17C4 000:985 JLINK_WriteReg(R0, 0x08000000)  returns 0x00 (0000ms, 0624ms total)
T17C4 000:985 JLINK_WriteReg(R1, 0x007A1200)  returns 0x00 (0000ms, 0624ms total)
T17C4 000:986 JLINK_WriteReg(R2, 0x00000002)  returns 0x00 (0000ms, 0625ms total)
T17C4 000:986 JLINK_WriteReg(R3, 0x00000000)  returns 0x00 (0000ms, 0625ms total)
T17C4 000:986 JLINK_WriteReg(R4, 0x00000000)  returns 0x00 (0000ms, 0625ms total)
T17C4 000:986 JLINK_WriteReg(R5, 0x00000000)  returns 0x00 (0000ms, 0625ms total)
T17C4 000:986 JLINK_WriteReg(R6, 0x00000000)  returns 0x00 (0000ms, 0625ms total)
T17C4 000:986 JLINK_WriteReg(R7, 0x00000000)  returns 0x00 (0000ms, 0625ms total)
T17C4 000:986 JLINK_WriteReg(R8, 0x00000000)  returns 0x00 (0000ms, 0625ms total)
T17C4 000:986 JLINK_WriteReg(R9, 0x20000160)  returns 0x00 (0000ms, 0625ms total)
T17C4 000:986 JLINK_WriteReg(R10, 0x00000000)  returns 0x00 (0000ms, 0625ms total)
T17C4 000:986 JLINK_WriteReg(R11, 0x00000000)  returns 0x00 (0000ms, 0625ms total)
T17C4 000:986 JLINK_WriteReg(R12, 0x00000000)  returns 0x00 (0000ms, 0625ms total)
T17C4 000:986 JLINK_WriteReg(R13 (SP), 0x20000800)  returns 0x00 (0000ms, 0625ms total)
T17C4 000:986 JLINK_WriteReg(R14, 0x20000001)  returns 0x00 (0000ms, 0625ms total)
T17C4 000:986 JLINK_WriteReg(R15 (PC), 0x20000038)  returns 0x00 (0000ms, 0625ms total)
T17C4 000:986 JLINK_WriteReg(XPSR, 0x01000000)  returns 0x00 (0000ms, 0625ms total)
T17C4 000:986 JLINK_WriteReg(MSP, 0x20000800)  returns 0x00 (0000ms, 0625ms total)
T17C4 000:986 JLINK_WriteReg(PSP, 0x20000800)  returns 0x00 (0000ms, 0625ms total)
T17C4 000:986 JLINK_WriteReg(CFBP, 0x00000000)  returns 0x00 (0000ms, 0625ms total)
T17C4 000:986 JLINK_SetBPEx(Addr = 0x20000000, Type = 0xFFFFFFF2) -- CPU_ReadMem(2 bytes @ 0x20000000)  returns 0x00000004 (0001ms, 0626ms total)
T17C4 000:987 JLINK_Go() -- CPU_WriteMem(2 bytes @ 0x20000000) (0002ms, 0628ms total)
T17C4 000:989 JLINK_IsHalted() -- CPU_ReadMem(2 bytes @ 0x20000000)  returns TRUE (0005ms, 0633ms total)
T17C4 000:994 JLINK_ReadReg(R15 (PC))  returns 0x20000000 (0000ms, 0628ms total)
T17C4 000:994 JLINK_ClrBPEx(BPHandle = 0x00000004)  returns 0x00 (0000ms, 0628ms total)
T17C4 000:994 JLINK_ReadReg(R0)  returns 0x00000000 (0000ms, 0628ms total)
T17C4 000:994 JLINK_WriteMem(0x20000164, 0x0400 Bytes, ...) - Data: F8 30 00 20 45 01 00 08 65 20 00 08 67 20 00 08 ... -- CPU_WriteMem(1024 bytes @ 0x20000164)  returns 0x400 (0009ms, 0637ms total)
T17C4 001:003 JLINK_WriteReg(R0, 0x08000000)  returns 0x00 (0000ms, 0637ms total)
T17C4 001:003 JLINK_WriteReg(R1, 0x00000400)  returns 0x00 (0000ms, 0637ms total)
T17C4 001:003 JLINK_WriteReg(R2, 0x20000164)  returns 0x00 (0000ms, 0637ms total)
T17C4 001:003 JLINK_WriteReg(R3, 0x00000000)  returns 0x00 (0000ms, 0637ms total)
T17C4 001:003 JLINK_WriteReg(R4, 0x00000000)  returns 0x00 (0001ms, 0638ms total)
T17C4 001:004 JLINK_WriteReg(R5, 0x00000000)  returns 0x00 (0000ms, 0638ms total)
T17C4 001:004 JLINK_WriteReg(R6, 0x00000000)  returns 0x00 (0000ms, 0638ms total)
T17C4 001:004 JLINK_WriteReg(R7, 0x00000000)  returns 0x00 (0000ms, 0638ms total)
T17C4 001:004 JLINK_WriteReg(R8, 0x00000000)  returns 0x00 (0000ms, 0638ms total)
T17C4 001:004 JLINK_WriteReg(R9, 0x20000160)  returns 0x00 (0000ms, 0638ms total)
T17C4 001:004 JLINK_WriteReg(R10, 0x00000000)  returns 0x00 (0000ms, 0638ms total)
T17C4 001:004 JLINK_WriteReg(R11, 0x00000000)  returns 0x00 (0000ms, 0638ms total)
T17C4 001:004 JLINK_WriteReg(R12, 0x00000000)  returns 0x00 (0000ms, 0638ms total)
T17C4 001:004 JLINK_WriteReg(R13 (SP), 0x20000800)  returns 0x00 (0000ms, 0638ms total)
T17C4 001:004 JLINK_WriteReg(R14, 0x20000001)  returns 0x00 (0000ms, 0638ms total)
T17C4 001:004 JLINK_WriteReg(R15 (PC), 0x200000F4)  returns 0x00 (0000ms, 0638ms total)
T17C4 001:004 JLINK_WriteReg(XPSR, 0x01000000)  returns 0x00 (0000ms, 0638ms total)
T17C4 001:004 JLINK_WriteReg(MSP, 0x20000800)  returns 0x00 (0000ms, 0638ms total)
T17C4 001:004 JLINK_WriteReg(PSP, 0x20000800)  returns 0x00 (0000ms, 0638ms total)
T17C4 001:004 JLINK_WriteReg(CFBP, 0x00000000)  returns 0x00 (0000ms, 0638ms total)
T17C4 001:004 JLINK_SetBPEx(Addr = 0x20000000, Type = 0xFFFFFFF2)  returns 0x00000005 (0000ms, 0638ms total)
T17C4 001:004 JLINK_Go() (0002ms, 0640ms total)
T17C4 001:006 JLINK_IsHalted()  returns FALSE (0001ms, 0641ms total)
T17C4 001:057 JLINK_IsHalted() -- CPU_ReadMem(2 bytes @ 0x20000000)  returns TRUE (0005ms, 0645ms total)
T17C4 001:062 JLINK_ReadReg(R15 (PC))  returns 0x20000000 (0000ms, 0640ms total)
T17C4 001:062 JLINK_ClrBPEx(BPHandle = 0x00000005)  returns 0x00 (0000ms, 0640ms total)
T17C4 001:062 JLINK_ReadReg(R0)  returns 0x00000000 (0000ms, 0640ms total)
T17C4 001:062 JLINK_WriteMem(0x20000164, 0x0400 Bytes, ...) - Data: 04 01 4F F0 E0 22 11 61 70 47 00 00 00 00 FA 05 ... -- CPU_WriteMem(1024 bytes @ 0x20000164)  returns 0x400 (0008ms, 0648ms total)
T17C4 001:070 JLINK_WriteReg(R0, 0x08000400)  returns 0x00 (0000ms, 0648ms total)
T17C4 001:070 JLINK_WriteReg(R1, 0x00000400)  returns 0x00 (0000ms, 0648ms total)
T17C4 001:070 JLINK_WriteReg(R2, 0x20000164)  returns 0x00 (0000ms, 0648ms total)
T17C4 001:070 JLINK_WriteReg(R3, 0x00000000)  returns 0x00 (0000ms, 0648ms total)
T17C4 001:070 JLINK_WriteReg(R4, 0x00000000)  returns 0x00 (0001ms, 0649ms total)
T17C4 001:071 JLINK_WriteReg(R5, 0x00000000)  returns 0x00 (0000ms, 0649ms total)
T17C4 001:071 JLINK_WriteReg(R6, 0x00000000)  returns 0x00 (0000ms, 0649ms total)
T17C4 001:071 JLINK_WriteReg(R7, 0x00000000)  returns 0x00 (0000ms, 0649ms total)
T17C4 001:071 JLINK_WriteReg(R8, 0x00000000)  returns 0x00 (0000ms, 0649ms total)
T17C4 001:071 JLINK_WriteReg(R9, 0x20000160)  returns 0x00 (0000ms, 0649ms total)
T17C4 001:071 JLINK_WriteReg(R10, 0x00000000)  returns 0x00 (0000ms, 0649ms total)
T17C4 001:071 JLINK_WriteReg(R11, 0x00000000)  returns 0x00 (0000ms, 0649ms total)
T17C4 001:071 JLINK_WriteReg(R12, 0x00000000)  returns 0x00 (0000ms, 0649ms total)
T17C4 001:071 JLINK_WriteReg(R13 (SP), 0x20000800)  returns 0x00 (0000ms, 0649ms total)
T17C4 001:071 JLINK_WriteReg(R14, 0x20000001)  returns 0x00 (0000ms, 0649ms total)
T17C4 001:071 JLINK_WriteReg(R15 (PC), 0x200000F4)  returns 0x00 (0000ms, 0649ms total)
T17C4 001:071 JLINK_WriteReg(XPSR, 0x01000000)  returns 0x00 (0000ms, 0649ms total)
T17C4 001:071 JLINK_WriteReg(MSP, 0x20000800)  returns 0x00 (0000ms, 0649ms total)
T17C4 001:071 JLINK_WriteReg(PSP, 0x20000800)  returns 0x00 (0000ms, 0649ms total)
T17C4 001:071 JLINK_WriteReg(CFBP, 0x00000000)  returns 0x00 (0000ms, 0649ms total)
T17C4 001:071 JLINK_SetBPEx(Addr = 0x20000000, Type = 0xFFFFFFF2)  returns 0x00000006 (0000ms, 0649ms total)
T17C4 001:071 JLINK_Go() (0002ms, 0651ms total)
T17C4 001:073 JLINK_IsHalted()  returns FALSE (0001ms, 0652ms total)
T17C4 001:124 JLINK_IsHalted() -- CPU_ReadMem(2 bytes @ 0x20000000)  returns TRUE (0004ms, 0655ms total)
T17C4 001:128 JLINK_ReadReg(R15 (PC))  returns 0x20000000 (0000ms, 0651ms total)
T17C4 001:128 JLINK_ClrBPEx(BPHandle = 0x00000006)  returns 0x00 (0000ms, 0651ms total)
T17C4 001:128 JLINK_ReadReg(R0)  returns 0x00000000 (0000ms, 0651ms total)
T17C4 001:129 JLINK_WriteMem(0x20000164, 0x0400 Bytes, ...) - Data: 00 BF 00 BF 70 47 10 B5 01 46 00 22 00 23 00 20 ... -- CPU_WriteMem(1024 bytes @ 0x20000164)  returns 0x400 (0008ms, 0659ms total)
T17C4 001:137 JLINK_WriteReg(R0, 0x08000800)  returns 0x00 (0000ms, 0659ms total)
T17C4 001:137 JLINK_WriteReg(R1, 0x00000400)  returns 0x00 (0000ms, 0659ms total)
T17C4 001:137 JLINK_WriteReg(R2, 0x20000164)  returns 0x00 (0000ms, 0659ms total)
T17C4 001:137 JLINK_WriteReg(R3, 0x00000000)  returns 0x00 (0000ms, 0659ms total)
T17C4 001:137 JLINK_WriteReg(R4, 0x00000000)  returns 0x00 (0000ms, 0659ms total)
T17C4 001:137 JLINK_WriteReg(R5, 0x00000000)  returns 0x00 (0000ms, 0659ms total)
T17C4 001:137 JLINK_WriteReg(R6, 0x00000000)  returns 0x00 (0000ms, 0659ms total)
T17C4 001:137 JLINK_WriteReg(R7, 0x00000000)  returns 0x00 (0000ms, 0659ms total)
T17C4 001:137 JLINK_WriteReg(R8, 0x00000000)  returns 0x00 (0000ms, 0659ms total)
T17C4 001:137 JLINK_WriteReg(R9, 0x20000160)  returns 0x00 (0000ms, 0659ms total)
T17C4 001:137 JLINK_WriteReg(R10, 0x00000000)  returns 0x00 (0001ms, 0660ms total)
T17C4 001:138 JLINK_WriteReg(R11, 0x00000000)  returns 0x00 (0000ms, 0660ms total)
T17C4 001:138 JLINK_WriteReg(R12, 0x00000000)  returns 0x00 (0000ms, 0660ms total)
T17C4 001:138 JLINK_WriteReg(R13 (SP), 0x20000800)  returns 0x00 (0000ms, 0660ms total)
T17C4 001:138 JLINK_WriteReg(R14, 0x20000001)  returns 0x00 (0000ms, 0660ms total)
T17C4 001:138 JLINK_WriteReg(R15 (PC), 0x200000F4)  returns 0x00 (0000ms, 0660ms total)
T17C4 001:138 JLINK_WriteReg(XPSR, 0x01000000)  returns 0x00 (0000ms, 0660ms total)
T17C4 001:138 JLINK_WriteReg(MSP, 0x20000800)  returns 0x00 (0000ms, 0660ms total)
T17C4 001:138 JLINK_WriteReg(PSP, 0x20000800)  returns 0x00 (0000ms, 0660ms total)
T17C4 001:138 JLINK_WriteReg(CFBP, 0x00000000)  returns 0x00 (0000ms, 0660ms total)
T17C4 001:138 JLINK_SetBPEx(Addr = 0x20000000, Type = 0xFFFFFFF2)  returns 0x00000007 (0000ms, 0660ms total)
T17C4 001:138 JLINK_Go() (0002ms, 0662ms total)
T17C4 001:140 JLINK_IsHalted()  returns FALSE (0000ms, 0662ms total)
T17C4 001:190 JLINK_IsHalted() -- CPU_ReadMem(2 bytes @ 0x20000000)  returns TRUE (0004ms, 0666ms total)
T17C4 001:194 JLINK_ReadReg(R15 (PC))  returns 0x20000000 (0000ms, 0662ms total)
T17C4 001:194 JLINK_ClrBPEx(BPHandle = 0x00000007)  returns 0x00 (0000ms, 0662ms total)
T17C4 001:194 JLINK_ReadReg(R0)  returns 0x00000000 (0000ms, 0662ms total)
T17C4 001:195 JLINK_WriteMem(0x20000164, 0x0400 Bytes, ...) - Data: B9 FE DD F8 00 A0 E0 88 B0 F5 00 7F 0A D1 4F EA ... -- CPU_WriteMem(1024 bytes @ 0x20000164)  returns 0x400 (0008ms, 0670ms total)
T17C4 001:203 JLINK_WriteReg(R0, 0x08000C00)  returns 0x00 (0000ms, 0670ms total)
T17C4 001:203 JLINK_WriteReg(R1, 0x00000400)  returns 0x00 (0000ms, 0670ms total)
T17C4 001:203 JLINK_WriteReg(R2, 0x20000164)  returns 0x00 (0000ms, 0670ms total)
T17C4 001:203 JLINK_WriteReg(R3, 0x00000000)  returns 0x00 (0000ms, 0670ms total)
T17C4 001:203 JLINK_WriteReg(R4, 0x00000000)  returns 0x00 (0000ms, 0670ms total)
T17C4 001:203 JLINK_WriteReg(R5, 0x00000000)  returns 0x00 (0000ms, 0670ms total)
T17C4 001:203 JLINK_WriteReg(R6, 0x00000000)  returns 0x00 (0000ms, 0670ms total)
T17C4 001:203 JLINK_WriteReg(R7, 0x00000000)  returns 0x00 (0001ms, 0671ms total)
T17C4 001:204 JLINK_WriteReg(R8, 0x00000000)  returns 0x00 (0000ms, 0671ms total)
T17C4 001:204 JLINK_WriteReg(R9, 0x20000160)  returns 0x00 (0000ms, 0671ms total)
T17C4 001:204 JLINK_WriteReg(R10, 0x00000000)  returns 0x00 (0000ms, 0671ms total)
T17C4 001:204 JLINK_WriteReg(R11, 0x00000000)  returns 0x00 (0000ms, 0671ms total)
T17C4 001:204 JLINK_WriteReg(R12, 0x00000000)  returns 0x00 (0000ms, 0671ms total)
T17C4 001:204 JLINK_WriteReg(R13 (SP), 0x20000800)  returns 0x00 (0000ms, 0671ms total)
T17C4 001:204 JLINK_WriteReg(R14, 0x20000001)  returns 0x00 (0000ms, 0671ms total)
T17C4 001:204 JLINK_WriteReg(R15 (PC), 0x200000F4)  returns 0x00 (0000ms, 0671ms total)
T17C4 001:204 JLINK_WriteReg(XPSR, 0x01000000)  returns 0x00 (0000ms, 0671ms total)
T17C4 001:204 JLINK_WriteReg(MSP, 0x20000800)  returns 0x00 (0000ms, 0671ms total)
T17C4 001:204 JLINK_WriteReg(PSP, 0x20000800)  returns 0x00 (0000ms, 0671ms total)
T17C4 001:204 JLINK_WriteReg(CFBP, 0x00000000)  returns 0x00 (0000ms, 0671ms total)
T17C4 001:204 JLINK_SetBPEx(Addr = 0x20000000, Type = 0xFFFFFFF2)  returns 0x00000008 (0000ms, 0671ms total)
T17C4 001:204 JLINK_Go() (0002ms, 0673ms total)
T17C4 001:206 JLINK_IsHalted()  returns FALSE (0000ms, 0673ms total)
T17C4 001:256 JLINK_IsHalted() -- CPU_ReadMem(2 bytes @ 0x20000000)  returns TRUE (0004ms, 0677ms total)
T17C4 001:260 JLINK_ReadReg(R15 (PC))  returns 0x20000000 (0000ms, 0673ms total)
T17C4 001:260 JLINK_ClrBPEx(BPHandle = 0x00000008)  returns 0x00 (0000ms, 0673ms total)
T17C4 001:260 JLINK_ReadReg(R0)  returns 0x00000000 (0001ms, 0674ms total)
T17C4 001:261 JLINK_WriteMem(0x20000164, 0x0400 Bytes, ...) - Data: 98 42 04 D1 4F F6 8F 73 1A 40 4B 88 1A 43 8E 4B ... -- CPU_WriteMem(1024 bytes @ 0x20000164)  returns 0x400 (0008ms, 0682ms total)
T17C4 001:269 JLINK_WriteReg(R0, 0x08001000)  returns 0x00 (0000ms, 0682ms total)
T17C4 001:269 JLINK_WriteReg(R1, 0x00000400)  returns 0x00 (0000ms, 0682ms total)
T17C4 001:269 JLINK_WriteReg(R2, 0x20000164)  returns 0x00 (0000ms, 0682ms total)
T17C4 001:269 JLINK_WriteReg(R3, 0x00000000)  returns 0x00 (0000ms, 0682ms total)
T17C4 001:269 JLINK_WriteReg(R4, 0x00000000)  returns 0x00 (0000ms, 0682ms total)
T17C4 001:269 JLINK_WriteReg(R5, 0x00000000)  returns 0x00 (0001ms, 0683ms total)
T17C4 001:270 JLINK_WriteReg(R6, 0x00000000)  returns 0x00 (0000ms, 0683ms total)
T17C4 001:270 JLINK_WriteReg(R7, 0x00000000)  returns 0x00 (0000ms, 0683ms total)
T17C4 001:270 JLINK_WriteReg(R8, 0x00000000)  returns 0x00 (0000ms, 0683ms total)
T17C4 001:270 JLINK_WriteReg(R9, 0x20000160)  returns 0x00 (0000ms, 0683ms total)
T17C4 001:270 JLINK_WriteReg(R10, 0x00000000)  returns 0x00 (0000ms, 0683ms total)
T17C4 001:270 JLINK_WriteReg(R11, 0x00000000)  returns 0x00 (0000ms, 0683ms total)
T17C4 001:270 JLINK_WriteReg(R12, 0x00000000)  returns 0x00 (0000ms, 0683ms total)
T17C4 001:270 JLINK_WriteReg(R13 (SP), 0x20000800)  returns 0x00 (0000ms, 0683ms total)
T17C4 001:270 JLINK_WriteReg(R14, 0x20000001)  returns 0x00 (0000ms, 0683ms total)
T17C4 001:270 JLINK_WriteReg(R15 (PC), 0x200000F4)  returns 0x00 (0000ms, 0683ms total)
T17C4 001:270 JLINK_WriteReg(XPSR, 0x01000000)  returns 0x00 (0000ms, 0683ms total)
T17C4 001:270 JLINK_WriteReg(MSP, 0x20000800)  returns 0x00 (0000ms, 0683ms total)
T17C4 001:270 JLINK_WriteReg(PSP, 0x20000800)  returns 0x00 (0000ms, 0683ms total)
T17C4 001:270 JLINK_WriteReg(CFBP, 0x00000000)  returns 0x00 (0000ms, 0683ms total)
T17C4 001:270 JLINK_SetBPEx(Addr = 0x20000000, Type = 0xFFFFFFF2)  returns 0x00000009 (0000ms, 0683ms total)
T17C4 001:270 JLINK_Go() (0002ms, 0685ms total)
T17C4 001:272 JLINK_IsHalted()  returns FALSE (0001ms, 0686ms total)
T17C4 001:323 JLINK_IsHalted() -- CPU_ReadMem(2 bytes @ 0x20000000)  returns TRUE (0004ms, 0689ms total)
T17C4 001:327 JLINK_ReadReg(R15 (PC))  returns 0x20000000 (0000ms, 0685ms total)
T17C4 001:327 JLINK_ClrBPEx(BPHandle = 0x00000009)  returns 0x00 (0000ms, 0685ms total)
T17C4 001:327 JLINK_ReadReg(R0)  returns 0x00000000 (0001ms, 0686ms total)
T17C4 001:328 JLINK_WriteMem(0x20000164, 0x0400 Bytes, ...) - Data: B8 42 0E D0 98 4F B8 42 0B D0 B0 F1 80 4F 08 D0 ... -- CPU_WriteMem(1024 bytes @ 0x20000164)  returns 0x400 (0008ms, 0694ms total)
T17C4 001:337 JLINK_WriteReg(R0, 0x08001400)  returns 0x00 (0000ms, 0695ms total)
T17C4 001:337 JLINK_WriteReg(R1, 0x00000400)  returns 0x00 (0000ms, 0695ms total)
T17C4 001:337 JLINK_WriteReg(R2, 0x20000164)  returns 0x00 (0000ms, 0695ms total)
T17C4 001:337 JLINK_WriteReg(R3, 0x00000000)  returns 0x00 (0000ms, 0695ms total)
T17C4 001:337 JLINK_WriteReg(R4, 0x00000000)  returns 0x00 (0000ms, 0695ms total)
T17C4 001:337 JLINK_WriteReg(R5, 0x00000000)  returns 0x00 (0000ms, 0695ms total)
T17C4 001:337 JLINK_WriteReg(R6, 0x00000000)  returns 0x00 (0000ms, 0695ms total)
T17C4 001:337 JLINK_WriteReg(R7, 0x00000000)  returns 0x00 (0000ms, 0695ms total)
T17C4 001:337 JLINK_WriteReg(R8, 0x00000000)  returns 0x00 (0000ms, 0695ms total)
T17C4 001:337 JLINK_WriteReg(R9, 0x20000160)  returns 0x00 (0000ms, 0695ms total)
T17C4 001:337 JLINK_WriteReg(R10, 0x00000000)  returns 0x00 (0000ms, 0695ms total)
T17C4 001:337 JLINK_WriteReg(R11, 0x00000000)  returns 0x00 (0000ms, 0695ms total)
T17C4 001:337 JLINK_WriteReg(R12, 0x00000000)  returns 0x00 (0000ms, 0695ms total)
T17C4 001:337 JLINK_WriteReg(R13 (SP), 0x20000800)  returns 0x00 (0000ms, 0695ms total)
T17C4 001:337 JLINK_WriteReg(R14, 0x20000001)  returns 0x00 (0000ms, 0695ms total)
T17C4 001:337 JLINK_WriteReg(R15 (PC), 0x200000F4)  returns 0x00 (0000ms, 0695ms total)
T17C4 001:337 JLINK_WriteReg(XPSR, 0x01000000)  returns 0x00 (0000ms, 0695ms total)
T17C4 001:337 JLINK_WriteReg(MSP, 0x20000800)  returns 0x00 (0000ms, 0695ms total)
T17C4 001:337 JLINK_WriteReg(PSP, 0x20000800)  returns 0x00 (0000ms, 0695ms total)
T17C4 001:337 JLINK_WriteReg(CFBP, 0x00000000)  returns 0x00 (0000ms, 0695ms total)
T17C4 001:337 JLINK_SetBPEx(Addr = 0x20000000, Type = 0xFFFFFFF2)  returns 0x0000000A (0000ms, 0695ms total)
T17C4 001:337 JLINK_Go() (0002ms, 0697ms total)
T17C4 001:340 JLINK_IsHalted()  returns FALSE (0000ms, 0697ms total)
T17C4 001:390 JLINK_IsHalted() -- CPU_ReadMem(2 bytes @ 0x20000000)  returns TRUE (0004ms, 0701ms total)
T17C4 001:394 JLINK_ReadReg(R15 (PC))  returns 0x20000000 (0000ms, 0697ms total)
T17C4 001:394 JLINK_ClrBPEx(BPHandle = 0x0000000A)  returns 0x00 (0000ms, 0697ms total)
T17C4 001:394 JLINK_ReadReg(R0)  returns 0x00000000 (0000ms, 0697ms total)
T17C4 001:394 JLINK_WriteMem(0x20000164, 0x0400 Bytes, ...) - Data: 01 8B 4F F6 8F 73 19 40 11 43 01 83 70 47 0A 46 ... -- CPU_WriteMem(1024 bytes @ 0x20000164)  returns 0x400 (0009ms, 0706ms total)
T17C4 001:403 JLINK_WriteReg(R0, 0x08001800)  returns 0x00 (0000ms, 0706ms total)
T17C4 001:403 JLINK_WriteReg(R1, 0x00000400)  returns 0x00 (0000ms, 0706ms total)
T17C4 001:403 JLINK_WriteReg(R2, 0x20000164)  returns 0x00 (0000ms, 0706ms total)
T17C4 001:403 JLINK_WriteReg(R3, 0x00000000)  returns 0x00 (0000ms, 0706ms total)
T17C4 001:403 JLINK_WriteReg(R4, 0x00000000)  returns 0x00 (0000ms, 0706ms total)
T17C4 001:403 JLINK_WriteReg(R5, 0x00000000)  returns 0x00 (0000ms, 0706ms total)
T17C4 001:403 JLINK_WriteReg(R6, 0x00000000)  returns 0x00 (0000ms, 0706ms total)
T17C4 001:403 JLINK_WriteReg(R7, 0x00000000)  returns 0x00 (0000ms, 0706ms total)
T17C4 001:403 JLINK_WriteReg(R8, 0x00000000)  returns 0x00 (0000ms, 0706ms total)
T17C4 001:403 JLINK_WriteReg(R9, 0x20000160)  returns 0x00 (0000ms, 0706ms total)
T17C4 001:403 JLINK_WriteReg(R10, 0x00000000)  returns 0x00 (0000ms, 0706ms total)
T17C4 001:403 JLINK_WriteReg(R11, 0x00000000)  returns 0x00 (0001ms, 0707ms total)
T17C4 001:404 JLINK_WriteReg(R12, 0x00000000)  returns 0x00 (0000ms, 0707ms total)
T17C4 001:404 JLINK_WriteReg(R13 (SP), 0x20000800)  returns 0x00 (0000ms, 0707ms total)
T17C4 001:404 JLINK_WriteReg(R14, 0x20000001)  returns 0x00 (0000ms, 0707ms total)
T17C4 001:404 JLINK_WriteReg(R15 (PC), 0x200000F4)  returns 0x00 (0000ms, 0707ms total)
T17C4 001:404 JLINK_WriteReg(XPSR, 0x01000000)  returns 0x00 (0000ms, 0707ms total)
T17C4 001:404 JLINK_WriteReg(MSP, 0x20000800)  returns 0x00 (0000ms, 0707ms total)
T17C4 001:404 JLINK_WriteReg(PSP, 0x20000800)  returns 0x00 (0000ms, 0707ms total)
T17C4 001:404 JLINK_WriteReg(CFBP, 0x00000000)  returns 0x00 (0000ms, 0707ms total)
T17C4 001:404 JLINK_SetBPEx(Addr = 0x20000000, Type = 0xFFFFFFF2)  returns 0x0000000B (0000ms, 0707ms total)
T17C4 001:404 JLINK_Go() (0002ms, 0709ms total)
T17C4 001:406 JLINK_IsHalted()  returns FALSE (0000ms, 0709ms total)
T17C4 001:456 JLINK_IsHalted() -- CPU_ReadMem(2 bytes @ 0x20000000)  returns TRUE (0004ms, 0713ms total)
T17C4 001:460 JLINK_ReadReg(R15 (PC))  returns 0x20000000 (0000ms, 0709ms total)
T17C4 001:460 JLINK_ClrBPEx(BPHandle = 0x0000000B)  returns 0x00 (0000ms, 0709ms total)
T17C4 001:460 JLINK_ReadReg(R0)  returns 0x00000000 (0001ms, 0710ms total)
T17C4 001:461 JLINK_WriteMem(0x20000164, 0x0400 Bytes, ...) - Data: 8D F8 06 00 18 20 8D F8 07 00 01 A9 F8 48 FE F7 ... -- CPU_WriteMem(1024 bytes @ 0x20000164)  returns 0x400 (0008ms, 0718ms total)
T17C4 001:469 JLINK_WriteReg(R0, 0x08001C00)  returns 0x00 (0000ms, 0718ms total)
T17C4 001:469 JLINK_WriteReg(R1, 0x00000400)  returns 0x00 (0001ms, 0719ms total)
T17C4 001:470 JLINK_WriteReg(R2, 0x20000164)  returns 0x00 (0000ms, 0719ms total)
T17C4 001:470 JLINK_WriteReg(R3, 0x00000000)  returns 0x00 (0000ms, 0719ms total)
T17C4 001:470 JLINK_WriteReg(R4, 0x00000000)  returns 0x00 (0000ms, 0719ms total)
T17C4 001:470 JLINK_WriteReg(R5, 0x00000000)  returns 0x00 (0000ms, 0719ms total)
T17C4 001:470 JLINK_WriteReg(R6, 0x00000000)  returns 0x00 (0000ms, 0719ms total)
T17C4 001:470 JLINK_WriteReg(R7, 0x00000000)  returns 0x00 (0000ms, 0719ms total)
T17C4 001:470 JLINK_WriteReg(R8, 0x00000000)  returns 0x00 (0000ms, 0719ms total)
T17C4 001:470 JLINK_WriteReg(R9, 0x20000160)  returns 0x00 (0000ms, 0719ms total)
T17C4 001:470 JLINK_WriteReg(R10, 0x00000000)  returns 0x00 (0000ms, 0719ms total)
T17C4 001:470 JLINK_WriteReg(R11, 0x00000000)  returns 0x00 (0000ms, 0719ms total)
T17C4 001:470 JLINK_WriteReg(R12, 0x00000000)  returns 0x00 (0000ms, 0719ms total)
T17C4 001:470 JLINK_WriteReg(R13 (SP), 0x20000800)  returns 0x00 (0000ms, 0719ms total)
T17C4 001:470 JLINK_WriteReg(R14, 0x20000001)  returns 0x00 (0000ms, 0719ms total)
T17C4 001:470 JLINK_WriteReg(R15 (PC), 0x200000F4)  returns 0x00 (0000ms, 0719ms total)
T17C4 001:470 JLINK_WriteReg(XPSR, 0x01000000)  returns 0x00 (0000ms, 0719ms total)
T17C4 001:470 JLINK_WriteReg(MSP, 0x20000800)  returns 0x00 (0000ms, 0719ms total)
T17C4 001:470 JLINK_WriteReg(PSP, 0x20000800)  returns 0x00 (0000ms, 0719ms total)
T17C4 001:470 JLINK_WriteReg(CFBP, 0x00000000)  returns 0x00 (0000ms, 0719ms total)
T17C4 001:470 JLINK_SetBPEx(Addr = 0x20000000, Type = 0xFFFFFFF2)  returns 0x0000000C (0000ms, 0719ms total)
T17C4 001:470 JLINK_Go() (0002ms, 0721ms total)
T17C4 001:472 JLINK_IsHalted()  returns FALSE (0001ms, 0722ms total)
T17C4 001:523 JLINK_IsHalted() -- CPU_ReadMem(2 bytes @ 0x20000000)  returns TRUE (0004ms, 0725ms total)
T17C4 001:527 JLINK_ReadReg(R15 (PC))  returns 0x20000000 (0000ms, 0721ms total)
T17C4 001:527 JLINK_ClrBPEx(BPHandle = 0x0000000C)  returns 0x00 (0000ms, 0721ms total)
T17C4 001:527 JLINK_ReadReg(R0)  returns 0x00000000 (0001ms, 0722ms total)
T17C4 001:528 JLINK_WriteMem(0x20000164, 0x0400 Bytes, ...) - Data: 16 48 FE F7 E1 FE 00 28 F9 D0 21 46 13 48 FE F7 ... -- CPU_WriteMem(1024 bytes @ 0x20000164)  returns 0x400 (0008ms, 0730ms total)
T17C4 001:536 JLINK_WriteReg(R0, 0x08002000)  returns 0x00 (0000ms, 0730ms total)
T17C4 001:536 JLINK_WriteReg(R1, 0x00000400)  returns 0x00 (0000ms, 0730ms total)
T17C4 001:536 JLINK_WriteReg(R2, 0x20000164)  returns 0x00 (0000ms, 0730ms total)
T17C4 001:536 JLINK_WriteReg(R3, 0x00000000)  returns 0x00 (0000ms, 0730ms total)
T17C4 001:536 JLINK_WriteReg(R4, 0x00000000)  returns 0x00 (0000ms, 0730ms total)
T17C4 001:536 JLINK_WriteReg(R5, 0x00000000)  returns 0x00 (0001ms, 0731ms total)
T17C4 001:537 JLINK_WriteReg(R6, 0x00000000)  returns 0x00 (0000ms, 0731ms total)
T17C4 001:537 JLINK_WriteReg(R7, 0x00000000)  returns 0x00 (0000ms, 0731ms total)
T17C4 001:537 JLINK_WriteReg(R8, 0x00000000)  returns 0x00 (0000ms, 0731ms total)
T17C4 001:537 JLINK_WriteReg(R9, 0x20000160)  returns 0x00 (0000ms, 0731ms total)
T17C4 001:537 JLINK_WriteReg(R10, 0x00000000)  returns 0x00 (0000ms, 0731ms total)
T17C4 001:537 JLINK_WriteReg(R11, 0x00000000)  returns 0x00 (0000ms, 0731ms total)
T17C4 001:537 JLINK_WriteReg(R12, 0x00000000)  returns 0x00 (0000ms, 0731ms total)
T17C4 001:537 JLINK_WriteReg(R13 (SP), 0x20000800)  returns 0x00 (0000ms, 0731ms total)
T17C4 001:537 JLINK_WriteReg(R14, 0x20000001)  returns 0x00 (0000ms, 0731ms total)
T17C4 001:537 JLINK_WriteReg(R15 (PC), 0x200000F4)  returns 0x00 (0000ms, 0731ms total)
T17C4 001:537 JLINK_WriteReg(XPSR, 0x01000000)  returns 0x00 (0000ms, 0731ms total)
T17C4 001:537 JLINK_WriteReg(MSP, 0x20000800)  returns 0x00 (0000ms, 0731ms total)
T17C4 001:537 JLINK_WriteReg(PSP, 0x20000800)  returns 0x00 (0000ms, 0731ms total)
T17C4 001:537 JLINK_WriteReg(CFBP, 0x00000000)  returns 0x00 (0000ms, 0731ms total)
T17C4 001:537 JLINK_SetBPEx(Addr = 0x20000000, Type = 0xFFFFFFF2)  returns 0x0000000D (0000ms, 0731ms total)
T17C4 001:537 JLINK_Go() (0002ms, 0733ms total)
T17C4 001:539 JLINK_IsHalted()  returns FALSE (0000ms, 0733ms total)
T17C4 001:589 JLINK_IsHalted() -- CPU_ReadMem(2 bytes @ 0x20000000)  returns TRUE (0004ms, 0737ms total)
T17C4 001:593 JLINK_ReadReg(R15 (PC))  returns 0x20000000 (0000ms, 0733ms total)
T17C4 001:593 JLINK_ClrBPEx(BPHandle = 0x0000000D)  returns 0x00 (0000ms, 0733ms total)
T17C4 001:593 JLINK_ReadReg(R0)  returns 0x00000000 (0000ms, 0733ms total)
T17C4 001:594 JLINK_WriteMem(0x20000164, 0x0400 Bytes, ...) - Data: 10 2D EE DB 60 1C C4 B2 10 2C E8 DB 58 E0 3A 48 ... -- CPU_WriteMem(1024 bytes @ 0x20000164)  returns 0x400 (0008ms, 0741ms total)
T17C4 001:602 JLINK_WriteReg(R0, 0x08002400)  returns 0x00 (0000ms, 0741ms total)
T17C4 001:602 JLINK_WriteReg(R1, 0x00000400)  returns 0x00 (0000ms, 0741ms total)
T17C4 001:602 JLINK_WriteReg(R2, 0x20000164)  returns 0x00 (0000ms, 0741ms total)
T17C4 001:602 JLINK_WriteReg(R3, 0x00000000)  returns 0x00 (0000ms, 0741ms total)
T17C4 001:602 JLINK_WriteReg(R4, 0x00000000)  returns 0x00 (0000ms, 0741ms total)
T17C4 001:602 JLINK_WriteReg(R5, 0x00000000)  returns 0x00 (0000ms, 0741ms total)
T17C4 001:603 JLINK_WriteReg(R6, 0x00000000)  returns 0x00 (0000ms, 0742ms total)
T17C4 001:603 JLINK_WriteReg(R7, 0x00000000)  returns 0x00 (0000ms, 0742ms total)
T17C4 001:603 JLINK_WriteReg(R8, 0x00000000)  returns 0x00 (0000ms, 0742ms total)
T17C4 001:603 JLINK_WriteReg(R9, 0x20000160)  returns 0x00 (0000ms, 0742ms total)
T17C4 001:603 JLINK_WriteReg(R10, 0x00000000)  returns 0x00 (0000ms, 0742ms total)
T17C4 001:603 JLINK_WriteReg(R11, 0x00000000)  returns 0x00 (0000ms, 0742ms total)
T17C4 001:603 JLINK_WriteReg(R12, 0x00000000)  returns 0x00 (0000ms, 0742ms total)
T17C4 001:603 JLINK_WriteReg(R13 (SP), 0x20000800)  returns 0x00 (0000ms, 0742ms total)
T17C4 001:603 JLINK_WriteReg(R14, 0x20000001)  returns 0x00 (0000ms, 0742ms total)
T17C4 001:603 JLINK_WriteReg(R15 (PC), 0x200000F4)  returns 0x00 (0000ms, 0742ms total)
T17C4 001:603 JLINK_WriteReg(XPSR, 0x01000000)  returns 0x00 (0000ms, 0742ms total)
T17C4 001:603 JLINK_WriteReg(MSP, 0x20000800)  returns 0x00 (0000ms, 0742ms total)
T17C4 001:603 JLINK_WriteReg(PSP, 0x20000800)  returns 0x00 (0000ms, 0742ms total)
T17C4 001:603 JLINK_WriteReg(CFBP, 0x00000000)  returns 0x00 (0000ms, 0742ms total)
T17C4 001:603 JLINK_SetBPEx(Addr = 0x20000000, Type = 0xFFFFFFF2)  returns 0x0000000E (0000ms, 0742ms total)
T17C4 001:603 JLINK_Go() (0002ms, 0744ms total)
T17C4 001:605 JLINK_IsHalted()  returns FALSE (0001ms, 0745ms total)
T17C4 001:656 JLINK_IsHalted() -- CPU_ReadMem(2 bytes @ 0x20000000)  returns TRUE (0004ms, 0748ms total)
T17C4 001:660 JLINK_ReadReg(R15 (PC))  returns 0x20000000 (0000ms, 0744ms total)
T17C4 001:660 JLINK_ClrBPEx(BPHandle = 0x0000000E)  returns 0x00 (0000ms, 0744ms total)
T17C4 001:660 JLINK_ReadReg(R0)  returns 0x00000000 (0000ms, 0744ms total)
T17C4 001:661 JLINK_WriteMem(0x20000164, 0x0400 Bytes, ...) - Data: 08 70 00 20 44 90 0E 26 44 49 09 78 47 4A 12 78 ... -- CPU_WriteMem(1024 bytes @ 0x20000164)  returns 0x400 (0008ms, 0752ms total)
T17C4 001:669 JLINK_WriteReg(R0, 0x08002800)  returns 0x00 (0000ms, 0752ms total)
T17C4 001:669 JLINK_WriteReg(R1, 0x00000400)  returns 0x00 (0000ms, 0752ms total)
T17C4 001:669 JLINK_WriteReg(R2, 0x20000164)  returns 0x00 (0000ms, 0752ms total)
T17C4 001:669 JLINK_WriteReg(R3, 0x00000000)  returns 0x00 (0000ms, 0752ms total)
T17C4 001:669 JLINK_WriteReg(R4, 0x00000000)  returns 0x00 (0000ms, 0752ms total)
T17C4 001:669 JLINK_WriteReg(R5, 0x00000000)  returns 0x00 (0000ms, 0752ms total)
T17C4 001:669 JLINK_WriteReg(R6, 0x00000000)  returns 0x00 (0000ms, 0752ms total)
T17C4 001:669 JLINK_WriteReg(R7, 0x00000000)  returns 0x00 (0000ms, 0752ms total)
T17C4 001:669 JLINK_WriteReg(R8, 0x00000000)  returns 0x00 (0000ms, 0752ms total)
T17C4 001:669 JLINK_WriteReg(R9, 0x20000160)  returns 0x00 (0000ms, 0752ms total)
T17C4 001:669 JLINK_WriteReg(R10, 0x00000000)  returns 0x00 (0000ms, 0752ms total)
T17C4 001:669 JLINK_WriteReg(R11, 0x00000000)  returns 0x00 (0001ms, 0753ms total)
T17C4 001:670 JLINK_WriteReg(R12, 0x00000000)  returns 0x00 (0000ms, 0753ms total)
T17C4 001:670 JLINK_WriteReg(R13 (SP), 0x20000800)  returns 0x00 (0000ms, 0753ms total)
T17C4 001:670 JLINK_WriteReg(R14, 0x20000001)  returns 0x00 (0000ms, 0753ms total)
T17C4 001:670 JLINK_WriteReg(R15 (PC), 0x200000F4)  returns 0x00 (0000ms, 0753ms total)
T17C4 001:670 JLINK_WriteReg(XPSR, 0x01000000)  returns 0x00 (0000ms, 0753ms total)
T17C4 001:670 JLINK_WriteReg(MSP, 0x20000800)  returns 0x00 (0000ms, 0753ms total)
T17C4 001:670 JLINK_WriteReg(PSP, 0x20000800)  returns 0x00 (0000ms, 0753ms total)
T17C4 001:670 JLINK_WriteReg(CFBP, 0x00000000)  returns 0x00 (0000ms, 0753ms total)
T17C4 001:670 JLINK_SetBPEx(Addr = 0x20000000, Type = 0xFFFFFFF2)  returns 0x0000000F (0000ms, 0753ms total)
T17C4 001:670 JLINK_Go() (0001ms, 0754ms total)
T17C4 001:671 JLINK_IsHalted()  returns FALSE (0001ms, 0755ms total)
T17C4 001:722 JLINK_IsHalted() -- CPU_ReadMem(2 bytes @ 0x20000000)  returns TRUE (0004ms, 0758ms total)
T17C4 001:726 JLINK_ReadReg(R15 (PC))  returns 0x20000000 (0000ms, 0754ms total)
T17C4 001:726 JLINK_ClrBPEx(BPHandle = 0x0000000F)  returns 0x00 (0000ms, 0754ms total)
T17C4 001:726 JLINK_ReadReg(R0)  returns 0x00000000 (0000ms, 0754ms total)
T17C4 001:727 JLINK_WriteMem(0x20000164, 0x0400 Bytes, ...) - Data: 07 21 5E 48 05 F0 D9 F8 04 F0 B5 FA 56 49 08 70 ... -- CPU_WriteMem(1024 bytes @ 0x20000164)  returns 0x400 (0008ms, 0762ms total)
T17C4 001:735 JLINK_WriteReg(R0, 0x08002C00)  returns 0x00 (0000ms, 0762ms total)
T17C4 001:735 JLINK_WriteReg(R1, 0x00000400)  returns 0x00 (0000ms, 0762ms total)
T17C4 001:735 JLINK_WriteReg(R2, 0x20000164)  returns 0x00 (0000ms, 0762ms total)
T17C4 001:735 JLINK_WriteReg(R3, 0x00000000)  returns 0x00 (0000ms, 0762ms total)
T17C4 001:735 JLINK_WriteReg(R4, 0x00000000)  returns 0x00 (0001ms, 0763ms total)
T17C4 001:736 JLINK_WriteReg(R5, 0x00000000)  returns 0x00 (0000ms, 0763ms total)
T17C4 001:736 JLINK_WriteReg(R6, 0x00000000)  returns 0x00 (0000ms, 0763ms total)
T17C4 001:736 JLINK_WriteReg(R7, 0x00000000)  returns 0x00 (0000ms, 0763ms total)
T17C4 001:736 JLINK_WriteReg(R8, 0x00000000)  returns 0x00 (0000ms, 0763ms total)
T17C4 001:736 JLINK_WriteReg(R9, 0x20000160)  returns 0x00 (0000ms, 0763ms total)
T17C4 001:736 JLINK_WriteReg(R10, 0x00000000)  returns 0x00 (0000ms, 0763ms total)
T17C4 001:736 JLINK_WriteReg(R11, 0x00000000)  returns 0x00 (0000ms, 0763ms total)
T17C4 001:736 JLINK_WriteReg(R12, 0x00000000)  returns 0x00 (0000ms, 0763ms total)
T17C4 001:736 JLINK_WriteReg(R13 (SP), 0x20000800)  returns 0x00 (0000ms, 0763ms total)
T17C4 001:736 JLINK_WriteReg(R14, 0x20000001)  returns 0x00 (0000ms, 0763ms total)
T17C4 001:736 JLINK_WriteReg(R15 (PC), 0x200000F4)  returns 0x00 (0000ms, 0763ms total)
T17C4 001:736 JLINK_WriteReg(XPSR, 0x01000000)  returns 0x00 (0000ms, 0763ms total)
T17C4 001:736 JLINK_WriteReg(MSP, 0x20000800)  returns 0x00 (0000ms, 0763ms total)
T17C4 001:736 JLINK_WriteReg(PSP, 0x20000800)  returns 0x00 (0000ms, 0763ms total)
T17C4 001:736 JLINK_WriteReg(CFBP, 0x00000000)  returns 0x00 (0000ms, 0763ms total)
T17C4 001:736 JLINK_SetBPEx(Addr = 0x20000000, Type = 0xFFFFFFF2)  returns 0x00000010 (0000ms, 0763ms total)
T17C4 001:736 JLINK_Go() (0002ms, 0765ms total)
T17C4 001:738 JLINK_IsHalted()  returns FALSE (0001ms, 0766ms total)
T17C4 001:789 JLINK_IsHalted() -- CPU_ReadMem(2 bytes @ 0x20000000)  returns TRUE (0004ms, 0769ms total)
T17C4 001:793 JLINK_ReadReg(R15 (PC))  returns 0x20000000 (0001ms, 0766ms total)
T17C4 001:794 JLINK_ClrBPEx(BPHandle = 0x00000010)  returns 0x00 (0000ms, 0766ms total)
T17C4 001:794 JLINK_ReadReg(R0)  returns 0x00000000 (0000ms, 0766ms total)
T17C4 001:795 JLINK_WriteMem(0x20000164, 0x0400 Bytes, ...) - Data: 8D F8 5C 10 8D F8 6C 10 8D F8 5B 10 8D F8 6B 10 ... -- CPU_WriteMem(1024 bytes @ 0x20000164)  returns 0x400 (0009ms, 0775ms total)
T17C4 001:804 JLINK_WriteReg(R0, 0x08003000)  returns 0x00 (0000ms, 0775ms total)
T17C4 001:804 JLINK_WriteReg(R1, 0x00000400)  returns 0x00 (0000ms, 0775ms total)
T17C4 001:804 JLINK_WriteReg(R2, 0x20000164)  returns 0x00 (0000ms, 0775ms total)
T17C4 001:804 JLINK_WriteReg(R3, 0x00000000)  returns 0x00 (0000ms, 0775ms total)
T17C4 001:804 JLINK_WriteReg(R4, 0x00000000)  returns 0x00 (0000ms, 0775ms total)
T17C4 001:804 JLINK_WriteReg(R5, 0x00000000)  returns 0x00 (0000ms, 0775ms total)
T17C4 001:804 JLINK_WriteReg(R6, 0x00000000)  returns 0x00 (0000ms, 0775ms total)
T17C4 001:804 JLINK_WriteReg(R7, 0x00000000)  returns 0x00 (0000ms, 0775ms total)
T17C4 001:804 JLINK_WriteReg(R8, 0x00000000)  returns 0x00 (0000ms, 0775ms total)
T17C4 001:804 JLINK_WriteReg(R9, 0x20000160)  returns 0x00 (0000ms, 0775ms total)
T17C4 001:804 JLINK_WriteReg(R10, 0x00000000)  returns 0x00 (0000ms, 0775ms total)
T17C4 001:804 JLINK_WriteReg(R11, 0x00000000)  returns 0x00 (0000ms, 0775ms total)
T17C4 001:804 JLINK_WriteReg(R12, 0x00000000)  returns 0x00 (0000ms, 0775ms total)
T17C4 001:804 JLINK_WriteReg(R13 (SP), 0x20000800)  returns 0x00 (0000ms, 0775ms total)
T17C4 001:804 JLINK_WriteReg(R14, 0x20000001)  returns 0x00 (0000ms, 0775ms total)
T17C4 001:804 JLINK_WriteReg(R15 (PC), 0x200000F4)  returns 0x00 (0000ms, 0775ms total)
T17C4 001:804 JLINK_WriteReg(XPSR, 0x01000000)  returns 0x00 (0001ms, 0776ms total)
T17C4 001:805 JLINK_WriteReg(MSP, 0x20000800)  returns 0x00 (0000ms, 0776ms total)
T17C4 001:805 JLINK_WriteReg(PSP, 0x20000800)  returns 0x00 (0000ms, 0776ms total)
T17C4 001:805 JLINK_WriteReg(CFBP, 0x00000000)  returns 0x00 (0000ms, 0776ms total)
T17C4 001:805 JLINK_SetBPEx(Addr = 0x20000000, Type = 0xFFFFFFF2)  returns 0x00000011 (0000ms, 0776ms total)
T17C4 001:805 JLINK_Go() (0002ms, 0778ms total)
T17C4 001:807 JLINK_IsHalted()  returns FALSE (0000ms, 0778ms total)
T17C4 001:857 JLINK_IsHalted() -- CPU_ReadMem(2 bytes @ 0x20000000)  returns TRUE (0004ms, 0782ms total)
T17C4 001:861 JLINK_ReadReg(R15 (PC))  returns 0x20000000 (0000ms, 0778ms total)
T17C4 001:861 JLINK_ClrBPEx(BPHandle = 0x00000011)  returns 0x00 (0000ms, 0778ms total)
T17C4 001:861 JLINK_ReadReg(R0)  returns 0x00000000 (0000ms, 0778ms total)
T17C4 001:862 JLINK_WriteMem(0x20000164, 0x0400 Bytes, ...) - Data: 00 78 03 28 03 D1 06 A8 05 F0 B7 FC 0E E0 F6 48 ... -- CPU_WriteMem(1024 bytes @ 0x20000164)  returns 0x400 (0008ms, 0786ms total)
T17C4 001:870 JLINK_WriteReg(R0, 0x08003400)  returns 0x00 (0000ms, 0786ms total)
T17C4 001:870 JLINK_WriteReg(R1, 0x00000400)  returns 0x00 (0000ms, 0786ms total)
T17C4 001:870 JLINK_WriteReg(R2, 0x20000164)  returns 0x00 (0000ms, 0786ms total)
T17C4 001:870 JLINK_WriteReg(R3, 0x00000000)  returns 0x00 (0000ms, 0786ms total)
T17C4 001:870 JLINK_WriteReg(R4, 0x00000000)  returns 0x00 (0000ms, 0786ms total)
T17C4 001:870 JLINK_WriteReg(R5, 0x00000000)  returns 0x00 (0000ms, 0786ms total)
T17C4 001:870 JLINK_WriteReg(R6, 0x00000000)  returns 0x00 (0000ms, 0786ms total)
T17C4 001:870 JLINK_WriteReg(R7, 0x00000000)  returns 0x00 (0000ms, 0786ms total)
T17C4 001:870 JLINK_WriteReg(R8, 0x00000000)  returns 0x00 (0000ms, 0786ms total)
T17C4 001:870 JLINK_WriteReg(R9, 0x20000160)  returns 0x00 (0000ms, 0786ms total)
T17C4 001:870 JLINK_WriteReg(R10, 0x00000000)  returns 0x00 (0000ms, 0786ms total)
T17C4 001:870 JLINK_WriteReg(R11, 0x00000000)  returns 0x00 (0001ms, 0787ms total)
T17C4 001:871 JLINK_WriteReg(R12, 0x00000000)  returns 0x00 (0000ms, 0787ms total)
T17C4 001:871 JLINK_WriteReg(R13 (SP), 0x20000800)  returns 0x00 (0000ms, 0787ms total)
T17C4 001:871 JLINK_WriteReg(R14, 0x20000001)  returns 0x00 (0000ms, 0787ms total)
T17C4 001:871 JLINK_WriteReg(R15 (PC), 0x200000F4)  returns 0x00 (0000ms, 0787ms total)
T17C4 001:871 JLINK_WriteReg(XPSR, 0x01000000)  returns 0x00 (0000ms, 0787ms total)
T17C4 001:871 JLINK_WriteReg(MSP, 0x20000800)  returns 0x00 (0000ms, 0787ms total)
T17C4 001:871 JLINK_WriteReg(PSP, 0x20000800)  returns 0x00 (0000ms, 0787ms total)
T17C4 001:871 JLINK_WriteReg(CFBP, 0x00000000)  returns 0x00 (0000ms, 0787ms total)
T17C4 001:871 JLINK_SetBPEx(Addr = 0x20000000, Type = 0xFFFFFFF2)  returns 0x00000012 (0000ms, 0787ms total)
T17C4 001:871 JLINK_Go() (0002ms, 0789ms total)
T17C4 001:873 JLINK_IsHalted()  returns FALSE (0000ms, 0789ms total)
T17C4 001:923 JLINK_IsHalted() -- CPU_ReadMem(2 bytes @ 0x20000000)  returns TRUE (0004ms, 0793ms total)
T17C4 001:927 JLINK_ReadReg(R15 (PC))  returns 0x20000000 (0000ms, 0789ms total)
T17C4 001:927 JLINK_ClrBPEx(BPHandle = 0x00000012)  returns 0x00 (0000ms, 0789ms total)
T17C4 001:927 JLINK_ReadReg(R0)  returns 0x00000000 (0000ms, 0789ms total)
T17C4 001:927 JLINK_WriteMem(0x20000164, 0x0400 Bytes, ...) - Data: 0B E0 20 1D 28 44 46 A9 08 5C 00 B9 07 E0 0B F1 ... -- CPU_WriteMem(1024 bytes @ 0x20000164)  returns 0x400 (0008ms, 0797ms total)
